T27CC 667:719 SEGGER J-Link V6.50a Log File (0001ms, 7943ms total)
T27CC 667:719 DLL Compiled: Aug 26 2019 10:16:19 (0001ms, 7943ms total)
T27CC 667:719 Logging started @ 2020-03-26 02:35 (0001ms, 7943ms total)
T27CC 667:720 JLINK_SetWarnOutHandler(...) (0000ms, 7943ms total)
T27CC 667:720 JLINK_OpenEx(...)
Firmware: J-Link OB-SAM3U128 V3 compiled Aug 22 2019 17:29:22
Hardware: V3.00
S/N: 483086840
TELNET listener socket opened on port 19021Device "AMA3B1KK-KBR" selected.WEBSRV 
Starting webserver (0024ms, 7967ms total)
T27CC 667:720 WEBSRV Webserver running on local port 19081 (0024ms, 7967ms total)
T27CC 667:720   returns O.K. (0024ms, 7967ms total)
T27CC 667:745 JLINK_GetEmuCaps()  returns 0xB9FE5BBF (0000ms, 7967ms total)
T27CC 667:745 JLINK_TIF_GetAvailable(...) (0000ms, 7967ms total)
T27CC 667:745 JLINK_SetErrorOutHandler(...) (0000ms, 7967ms total)
T27CC 667:746 JLINK_ExecCommand("ProjectFile = "C:\AmbiqMicro\AmbiqSuite-Rel2.4.2\boards\apollo3_evb\examples\ble_freertos_beaconscanner\keil\JLinkSettings.ini"", ...). Device "AMA3B1KK-KBR" selected.  returns 0x00 (0019ms, 7987ms total)
T27CC 667:765 JLINK_ExecCommand("Device = AMA3B1KK-KBR", ...). Device "AMA3B1KK-KBR" selected.  returns 0x00 (0011ms, 7998ms total)
T27CC 667:776 JLINK_ExecCommand("DisableConnectionTimeout", ...).   returns 0x01 (0000ms, 7998ms total)
T27CC 667:776 JLINK_GetHardwareVersion()  returns 0x7530 (0000ms, 7998ms total)
T27CC 667:776 JLINK_GetDLLVersion()  returns 65001 (0000ms, 7998ms total)
T27CC 667:776 JLINK_GetFirmwareString(...) (0000ms, 7998ms total)
T27CC 667:776 JLINK_GetDLLVersion()  returns 65001 (0000ms, 7998ms total)
T27CC 667:776 JLINK_GetCompileDateTime() (0000ms, 7998ms total)
T27CC 667:776 JLINK_GetFirmwareString(...) (0000ms, 7998ms total)
T27CC 667:776 JLINK_GetHardwareVersion()  returns 0x7530 (0000ms, 7998ms total)
T27CC 667:776 JLINK_TIF_Select(JLINKARM_TIF_SWD)  returns 0x00 (0002ms, 8000ms total)
T27CC 667:778 JLINK_SetSpeed(1000) (0000ms, 8000ms total)
T27CC 667:778 JLINK_GetId() >0x10B TIF>Found SW-DP with ID 0x2BA01477 >0x0D TIF> >0x28 TIF> >0x0D TIF> >0x28 TIF> >0x0D TIF> >0x28 TIF> >0x0D TIF> >0x28 TIF> >0x0D TIF> >0x21 TIF> >0x0D TIF> >0x28 TIF>Scanning AP map to find all available APs >0x0D TIF> >0x28 TIF> >0x0D TIF> >0x21 TIF> >0x0D TIF> >0x21 TIF> >0x0D TIF> >0x28 TIF> >0x0D TIF> >0x21 TIF> >0x0D TIF> >0x21 TIF>AP[1]: Stopped AP scan as end of AP map has been reachedAP[0]: AHB-AP (IDR: 0x24770011)Iterating through AP map to find AHB-AP to use
 >0x42 TIF> >0x28 TIF> >0x0D TIF> >0x28 TIF> >0x0D TIF> >0x21 TIF> >0x0D TIF> >0x21 TIF> >0x42 TIF> >0x28 TIF> >0x0D TIF> >0x28 TIF> >0x0D TIF> >0x28 TIF> >0x0D TIF> >0x21 TIF> >0x0D TIF> >0x21 TIF>AP[0]: Core foundAP[0]: AHB-AP ROM base: 0xE00FF000 >0x0D TIF> >0x28 TIF> >0x0D TIF> >0x28 TIF> >0x0D TIF> >0x28 TIF> >0x0D TIF> >0x21 TIF> >0x0D TIF> >0x21 TIF>CPUID register: 0x410FC241. Implementer code: 0x41 (ARM)Found Cortex-M4 r0p1, Little endian. -- Max. mem block: 0x00002B90
 -- CPU_ReadMem(4 bytes @ 0xE000EDF0) -- CPU_ReadMem(4 bytes @ 0xE0002000)FPUnit: 6 code (BP) slots and 2 literal slots -- CPU_ReadMem(4 bytes @ 0xE000EDFC) -- CPU_ReadMem(4 bytes @ 0xE0001000) -- CPU_WriteMem(4 bytes @ 0xE0001000) -- CPU_ReadMem(4 bytes @ 0xE000ED88) -- CPU_WriteMem(4 bytes @ 0xE000ED88) -- CPU_ReadMem(4 bytes @ 0xE000ED88) -- CPU_WriteMem(4 bytes @ 0xE000ED88)CoreSight components:ROMTbl[0] @ E00FF000 -- CPU_ReadMem(16 bytes @ 0xE00FF000) -- CPU_ReadMem(16 bytes @ 0xE000EFF0)
 -- CPU_ReadMem(16 bytes @ 0xE000EFE0)ROMTbl[0][0]: E000E000, CID: B105E00D, PID: 000BB00C SCS-M7 -- CPU_ReadMem(16 bytes @ 0xE0001FF0) -- CPU_ReadMem(16 bytes @ 0xE0001FE0)ROMTbl[0][1]: E0001000, CID: B105E00D, PID: 003BB002 DWT -- CPU_ReadMem(16 bytes @ 0xE0002FF0) -- CPU_ReadMem(16 bytes @ 0xE0002FE0)ROMTbl[0][2]: E0002000, CID: B105E00D, PID: 002BB003 FPB -- CPU_ReadMem(16 bytes @ 0xE0000FF0) -- CPU_ReadMem(16 bytes @ 0xE0000FE0)ROMTbl[0][3]: E0000000, CID: B105E00D, PID: 003BB001 ITM
 -- CPU_ReadMem(16 bytes @ 0xE00FF010) -- CPU_ReadMem(16 bytes @ 0xE0040FF0) -- CPU_ReadMem(16 bytes @ 0xE0040FE0)ROMTbl[0][4]: E0040000, CID: B105900D, PID: 000BB9A1 TPIU >0x0D TIF> >0x21 TIF>  returns 0x2BA01477 (0150ms, 8150ms total)
T27CC 667:928 JLINK_GetDLLVersion()  returns 65001 (0000ms, 8150ms total)
T27CC 667:928 JLINK_CORE_GetFound()  returns 0xE0000FF (0000ms, 8150ms total)
T27CC 667:928 JLINK_GetDebugInfo(0x100 = JLINKARM_ROM_TABLE_ADDR_INDEX) -- Value=0xE00FF000  returns 0x00 (0000ms, 8150ms total)
T27CC 667:928 JLINK_GetDebugInfo(0x100 = JLINKARM_ROM_TABLE_ADDR_INDEX) -- Value=0xE00FF000  returns 0x00 (0000ms, 8150ms total)
T27CC 667:928 JLINK_GetDebugInfo(0x101 = JLINKARM_DEBUG_INFO_ETM_ADDR_INDEX) -- Value=0x00000000  returns 0x00 (0000ms, 8150ms total)
T27CC 667:928 JLINK_ReadMemEx(0xE0041FF0, 0x0010 Bytes, ..., Flags = 0x02000004) -- CPU_ReadMem(16 bytes @ 0xE0041FF0) - Data: 00 00 00 00 00 00 00 00 00 00 00 00 00 00 00 00  returns 0x10 (0002ms, 8152ms total)
T27CC 667:930 JLINK_GetDebugInfo(0x102 = JLINKARM_DEBUG_INFO_MTB_ADDR_INDEX) -- Value=0x00000000  returns 0x00 (0000ms, 8152ms total)
T27CC 667:930 JLINK_GetDebugInfo(0x103 = JLINKARM_DEBUG_INFO_TPIU_ADDR_INDEX) -- Value=0xE0040000  returns 0x00 (0000ms, 8152ms total)
T27CC 667:930 JLINK_GetDebugInfo(0x104 = JLINKARM_DEBUG_INFO_ITM_ADDR_INDEX) -- Value=0xE0000000  returns 0x00 (0000ms, 8152ms total)
T27CC 667:930 JLINK_GetDebugInfo(0x105 = JLINKARM_DEBUG_INFO_DWT_ADDR_INDEX) -- Value=0xE0001000  returns 0x00 (0000ms, 8152ms total)
T27CC 667:930 JLINK_GetDebugInfo(0x106 = JLINKARM_DEBUG_INFO_FPB_ADDR_INDEX) -- Value=0xE0002000  returns 0x00 (0000ms, 8152ms total)
T27CC 667:930 JLINK_GetDebugInfo(0x107 = JLINKARM_DEBUG_INFO_NVIC_ADDR_INDEX) -- Value=0xE000E000  returns 0x00 (0000ms, 8152ms total)
T27CC 667:930 JLINK_GetDebugInfo(0x10C = JLINKARM_DEBUG_INFO_DBG_ADDR_INDEX) -- Value=0xE000EDF0  returns 0x00 (0000ms, 8152ms total)
T27CC 667:930 JLINK_GetDebugInfo(0x01 = Unknown) -- Value=0x00000001  returns 0x00 (0000ms, 8152ms total)
T27CC 667:930 JLINK_ReadMemU32(0xE000ED00, 0x0001 Items, ...) -- CPU_ReadMem(4 bytes @ 0xE000ED00) - Data: 41 C2 0F 41  returns 1 (0001ms, 8153ms total)
T27CC 667:931 JLINK_GetDebugInfo(0x10F = JLINKARM_DEBUG_INFO_HAS_CORTEX_M_SECURITY_EXT_INDEX) -- Value=0x00000000  returns 0x00 (0000ms, 8153ms total)
T27CC 667:931 JLINK_SetResetType(JLINKARM_CM3_RESET_TYPE_NORMAL)  returns JLINKARM_CM3_RESET_TYPE_NORMAL (0000ms, 8153ms total)
T27CC 667:931 JLINK_Reset()ResetTarget() start J-Link Script File: Executing ResetTarget() (0000ms, 8153ms total)
T27CC 667:931 JDEC PID 0x000000CFAmbiq Apollo3 ResetTargetBootldr = 0x04000000Secure Part.Secure Chip. Bootloader needs to run which will then halt when finish.CPU halted after reset. TryCount = 0x00000000ResetTarget() end -- CPU_WriteMem(4 bytes @ 0xE0002000) -- CPU_ReadMem(4 bytes @ 0xE000EDFC) -- CPU_WriteMem(4 bytes @ 0xE000EDFC) -- CPU_ReadMem(4 bytes @ 0xE0001000) (0119ms, 8272ms total)
T27CC 668:051 JLINK_ReadReg(R15 (PC))  returns 0x000008BE (0000ms, 8272ms total)
T27CC 668:051 JLINK_ReadReg(XPSR)  returns 0x81000000 (0000ms, 8272ms total)
T27CC 668:051 JLINK_Halt()  returns 0x00 (0000ms, 8272ms total)
T27CC 668:051 JLINK_ReadMemU32(0xE000EDF0, 0x0001 Items, ...) -- CPU_ReadMem(4 bytes @ 0xE000EDF0) - Data: 03 00 03 00  returns 1 (0001ms, 8273ms total)
T27CC 668:052 JLINK_WriteU32(0xE000EDF0, 0xA05F0003) -- CPU_WriteMem(4 bytes @ 0xE000EDF0)  returns 0 (0001ms, 8274ms total)
T27CC 668:053 JLINK_WriteU32(0xE000EDFC, 0x01000000) -- CPU_WriteMem(4 bytes @ 0xE000EDFC)  returns 0 (0001ms, 8275ms total)
T27CC 668:054 JLINK_GetHWStatus(...)  returns 0x00 (0000ms, 8275ms total)
T27CC 668:055 JLINK_GetNumBPUnits(Type = 0xFFFFFF00)  returns 0x06 (0000ms, 8275ms total)
T27CC 668:055 JLINK_GetNumBPUnits(Type = 0xF0)  returns 0x2000 (0000ms, 8275ms total)
T27CC 668:055 JLINK_GetNumWPUnits()  returns 0x04 (0000ms, 8275ms total)
T27CC 668:055 JLINK_GetSpeed()  returns 0x3E8 (0000ms, 8275ms total)
T27CC 668:055 JLINK_ReadMemU32(0xE000E004, 0x0001 Items, ...) -- CPU_ReadMem(4 bytes @ 0xE000E004) - Data: 00 00 00 00  returns 1 (0000ms, 8275ms total)
T27CC 668:055 JLINK_ReadMemU32(0xE000E004, 0x0001 Items, ...) -- CPU_ReadMem(4 bytes @ 0xE000E004) - Data: 00 00 00 00  returns 1 (0001ms, 8276ms total)
T27CC 668:056 JLINK_WriteMemEx(0xE0001000, 0x001C Bytes, ..., Flags = 0x02000004) - Data: 01 00 00 00 00 00 00 00 00 00 00 00 00 00 00 00 ... -- CPU_WriteMem(28 bytes @ 0xE0001000)  returns 0x1C (0002ms, 8278ms total)
T27CC 668:058 JLINK_ReadReg(R15 (PC))  returns 0x000008BE (0000ms, 8278ms total)
T27CC 668:058 JLINK_ReadReg(XPSR)  returns 0x81000000 (0000ms, 8278ms total)
T27CC 668:060 JLINK_SWO_Control(JLINKARM_SWO_CMD_GET_SPEED_INFO, ...)  returns 0x00 (0001ms, 8279ms total)
T27CC 668:061 JLINK_SWO_Control(JLINKARM_SWO_CMD_STOP, ...)  returns 0x00 (0000ms, 8279ms total)
T27CC 668:061 JLINK_SWO_Control(JLINKARM_SWO_CMD_START, ...)  returns 0x00 (0001ms, 8280ms total)
T27CC 668:062 JLINK_WriteU32(0xE0040004, 0x00000001) -- CPU_WriteMem(4 bytes @ 0xE0040004)  returns 0 (0001ms, 8281ms total)
T27CC 668:063 JLINK_WriteU32(0xE0040010, 0x00000002)  returns 0 (0000ms, 8281ms total)
T27CC 668:063 JLINK_WriteU32(0xE00400F0, 0x00000002)  returns 0 (0000ms, 8281ms total)
T27CC 668:063 JLINK_WriteU32(0xE0040304, 0x00000000)  returns 0 (0000ms, 8281ms total)
T27CC 668:063 JLINK_WriteU32(0xE0000FB0, 0xC5ACCE55) -- CPU_WriteMem(4 bytes @ 0xE0000FB0)  returns 0 (0001ms, 8282ms total)
T27CC 668:064 JLINK_WriteU32(0xE0000E80, 0x0001000D)  returns 0 (0000ms, 8282ms total)
T27CC 668:064 JLINK_WriteU32(0xE0000E00, 0x00000001)  returns 0 (0000ms, 8282ms total)
T27CC 668:064 JLINK_WriteU32(0xE0000E40, 0x00000000)  returns 0 (0000ms, 8282ms total)
T27CC 668:064 JLINK_WriteU32(0xE0001000, 0x0000061F)  returns 0 (0000ms, 8282ms total)
T27CC 668:087 JLINK_ReadMemEx(0xE0001004, 0x0004 Bytes, ..., Flags = 0x02000000) - Data: 00 00 00 00  returns 0x04 (0000ms, 8282ms total)
T27CC 669:158 JLINK_ReadMemEx(0x00000000, 0x003C Bytes, ..., Flags = 0x02000000) -- CPU_ReadMem(60 bytes @ 0x00000000) - Data: AA AA AA AA AA AA AA AA AA AA AA AA AA AA AA AA ...  returns 0xFFFFFFFF (0001ms, 8283ms total)
T27CC 669:159 JLINK_ReadMemEx(0x00000000, 0x003C Bytes, ..., Flags = 0x02000000) -- CPU_ReadMem(60 bytes @ 0x00000000) - Data: AA AA AA AA AA AA AA AA AA AA AA AA AA AA AA AA ...  returns 0xFFFFFFFF (0001ms, 8284ms total)
T27CC 669:160 JLINK_ReadMemEx(0x00000000, 0x0010 Bytes, ..., Flags = 0x02000000) -- CPU_ReadMem(16 bytes @ 0x00000000) - Data: AA AA AA AA AA AA AA AA AA AA AA AA AA AA AA AA  returns 0xFFFFFFFF (0001ms, 8285ms total)
T27CC 669:161 JLINK_ReadMemEx(0x00000000, 0x0004 Bytes, ..., Flags = 0x02000000) -- CPU_ReadMem(4 bytes @ 0x00000000) - Data: 50 91 00 A3  returns 0x04 (0000ms, 8285ms total)
T27CC 669:161 JLINK_ReadMemEx(0x00000002, 0x0002 Bytes, ..., Flags = 0x02000000) -- CPU_ReadMem(2 bytes @ 0x00000002) - Data: 00 A3  returns 0x02 (0001ms, 8286ms total)
T27CC 669:162 JLINK_ReadMemEx(0x00000004, 0x003C Bytes, ..., Flags = 0x02000000) -- CPU_ReadMem(60 bytes @ 0x00000004) - Data: AA AA AA AA AA AA AA AA AA AA AA AA AA AA AA AA ...  returns 0xFFFFFFFF (0001ms, 8287ms total)
T27CC 669:163 JLINK_ReadMemEx(0x00000004, 0x003C Bytes, ..., Flags = 0x02000000) -- CPU_ReadMem(60 bytes @ 0x00000004) - Data: AA AA AA AA AA AA AA AA AA AA AA AA AA AA AA AA ...  returns 0xFFFFFFFF (0001ms, 8288ms total)
T27CC 669:164 JLINK_ReadMemEx(0x00000004, 0x000C Bytes, ..., Flags = 0x02000000) -- CPU_ReadMem(12 bytes @ 0x00000004) - Data: AA AA AA AA AA AA AA AA AA AA AA AA  returns 0xFFFFFFFF (0001ms, 8289ms total)
T27CC 669:165 JLINK_ReadMemEx(0x00000004, 0x0004 Bytes, ..., Flags = 0x02000000) -- CPU_ReadMem(4 bytes @ 0x00000004) - Data: D2 4A 62 C0  returns 0x04 (0001ms, 8290ms total)
T27CC 669:166 JLINK_ReadMemEx(0x00000002, 0x0002 Bytes, ..., Flags = 0x02000000) -- CPU_ReadMem(2 bytes @ 0x00000002) - Data: 00 A3  returns 0x02 (0000ms, 8290ms total)
T27CC 669:166 JLINK_ReadMemEx(0x00000004, 0x003C Bytes, ..., Flags = 0x02000000) -- CPU_ReadMem(60 bytes @ 0x00000004) - Data: AA AA AA AA AA AA AA AA AA AA AA AA AA AA AA AA ...  returns 0xFFFFFFFF (0001ms, 8291ms total)
T27CC 669:167 JLINK_ReadMemEx(0x00000004, 0x003C Bytes, ..., Flags = 0x02000000) -- CPU_ReadMem(60 bytes @ 0x00000004) - Data: AA AA AA AA AA AA AA AA AA AA AA AA AA AA AA AA ...  returns 0xFFFFFFFF (0001ms, 8292ms total)
T27CC 669:168 JLINK_ReadMemEx(0x00000004, 0x000C Bytes, ..., Flags = 0x02000000) -- CPU_ReadMem(12 bytes @ 0x00000004) - Data: AA AA AA AA AA AA AA AA AA AA AA AA  returns 0xFFFFFFFF (0001ms, 8293ms total)
T27CC 669:169 JLINK_ReadMemEx(0x00000004, 0x0004 Bytes, ..., Flags = 0x02000000) -- CPU_ReadMem(4 bytes @ 0x00000004) - Data: D2 4A 62 C0  returns 0x04 (0001ms, 8294ms total)
T27CC 669:170 JLINK_ReadMemEx(0x00000002, 0x0002 Bytes, ..., Flags = 0x02000000) -- CPU_ReadMem(2 bytes @ 0x00000002) - Data: 00 A3  returns 0x02 (0000ms, 8294ms total)
T27CC 669:170 JLINK_ReadMemEx(0x00000004, 0x003C Bytes, ..., Flags = 0x02000000) -- CPU_ReadMem(60 bytes @ 0x00000004) - Data: AA AA AA AA AA AA AA AA AA AA AA AA AA AA AA AA ...  returns 0xFFFFFFFF (0001ms, 8295ms total)
T27CC 669:171 JLINK_ReadMemEx(0x00000004, 0x003C Bytes, ..., Flags = 0x02000000) -- CPU_ReadMem(60 bytes @ 0x00000004) - Data: AA AA AA AA AA AA AA AA AA AA AA AA AA AA AA AA ...  returns 0xFFFFFFFF (0001ms, 8296ms total)
T27CC 669:172 JLINK_ReadMemEx(0x00000004, 0x000C Bytes, ..., Flags = 0x02000000) -- CPU_ReadMem(12 bytes @ 0x00000004) - Data: AA AA AA AA AA AA AA AA AA AA AA AA  returns 0xFFFFFFFF (0001ms, 8297ms total)
T27CC 669:173 JLINK_ReadMemEx(0x00000004, 0x0004 Bytes, ..., Flags = 0x02000000) -- CPU_ReadMem(4 bytes @ 0x00000004) - Data: D2 4A 62 C0  returns 0x04 (0001ms, 8298ms total)
T27CC 669:174 JLINK_ReadMemEx(0x00000004, 0x003C Bytes, ..., Flags = 0x02000000) -- CPU_ReadMem(60 bytes @ 0x00000004) - Data: AA AA AA AA AA AA AA AA AA AA AA AA AA AA AA AA ...  returns 0xFFFFFFFF (0001ms, 8299ms total)
T27CC 669:175 JLINK_ReadMemEx(0x00000004, 0x003C Bytes, ..., Flags = 0x02000000) -- CPU_ReadMem(60 bytes @ 0x00000004) - Data: AA AA AA AA AA AA AA AA AA AA AA AA AA AA AA AA ...  returns 0xFFFFFFFF (0000ms, 8299ms total)
T27CC 669:175 JLINK_ReadMemEx(0x00000004, 0x000C Bytes, ..., Flags = 0x02000000) -- CPU_ReadMem(12 bytes @ 0x00000004) - Data: AA AA AA AA AA AA AA AA AA AA AA AA  returns 0xFFFFFFFF (0001ms, 8300ms total)
T27CC 669:176 JLINK_ReadMemEx(0x00000004, 0x0004 Bytes, ..., Flags = 0x02000000) -- CPU_ReadMem(4 bytes @ 0x00000004) - Data: D2 4A 62 C0  returns 0x04 (0001ms, 8301ms total)
T27CC 669:177 JLINK_ReadMemEx(0x00000004, 0x003C Bytes, ..., Flags = 0x02000000) -- CPU_ReadMem(60 bytes @ 0x00000004) - Data: AA AA AA AA AA AA AA AA AA AA AA AA AA AA AA AA ...  returns 0xFFFFFFFF (0001ms, 8302ms total)
T27CC 669:178 JLINK_ReadMemEx(0x00000004, 0x003C Bytes, ..., Flags = 0x02000000) -- CPU_ReadMem(60 bytes @ 0x00000004) - Data: AA AA AA AA AA AA AA AA AA AA AA AA AA AA AA AA ...  returns 0xFFFFFFFF (0001ms, 8303ms total)
T27CC 669:179 JLINK_ReadMemEx(0x00000004, 0x000C Bytes, ..., Flags = 0x02000000) -- CPU_ReadMem(12 bytes @ 0x00000004) - Data: AA AA AA AA AA AA AA AA AA AA AA AA  returns 0xFFFFFFFF (0001ms, 8304ms total)
T27CC 669:180 JLINK_ReadMemEx(0x00000004, 0x0004 Bytes, ..., Flags = 0x02000000) -- CPU_ReadMem(4 bytes @ 0x00000004) - Data: D2 4A 62 C0  returns 0x04 (0001ms, 8305ms total)
T27CC 669:181 JLINK_ReadMemEx(0x00000004, 0x003C Bytes, ..., Flags = 0x02000000) -- CPU_ReadMem(60 bytes @ 0x00000004) - Data: AA AA AA AA AA AA AA AA AA AA AA AA AA AA AA AA ...  returns 0xFFFFFFFF (0000ms, 8305ms total)
T27CC 669:181 JLINK_ReadMemEx(0x00000004, 0x003C Bytes, ..., Flags = 0x02000000) -- CPU_ReadMem(60 bytes @ 0x00000004) - Data: AA AA AA AA AA AA AA AA AA AA AA AA AA AA AA AA ...  returns 0xFFFFFFFF (0001ms, 8306ms total)
T27CC 669:182 JLINK_ReadMemEx(0x00000004, 0x000C Bytes, ..., Flags = 0x02000000) -- CPU_ReadMem(12 bytes @ 0x00000004) - Data: AA AA AA AA AA AA AA AA AA AA AA AA  returns 0xFFFFFFFF (0001ms, 8307ms total)
T27CC 669:183 JLINK_ReadMemEx(0x00000004, 0x0004 Bytes, ..., Flags = 0x02000000) -- CPU_ReadMem(4 bytes @ 0x00000004) - Data: D2 4A 62 C0  returns 0x04 (0002ms, 8309ms total)
T27CC 669:185 JLINK_ReadMemEx(0x00000006, 0x0002 Bytes, ..., Flags = 0x02000000) -- CPU_ReadMem(2 bytes @ 0x00000006) - Data: 62 C0  returns 0x02 (0001ms, 8310ms total)
T27CC 669:186 JLINK_ReadMemEx(0x00000008, 0x003C Bytes, ..., Flags = 0x02000000) -- CPU_ReadMem(60 bytes @ 0x00000008) - Data: AA AA AA AA AA AA AA AA AA AA AA AA AA AA AA AA ...  returns 0xFFFFFFFF (0001ms, 8311ms total)
T27CC 669:187 JLINK_ReadMemEx(0x00000008, 0x003C Bytes, ..., Flags = 0x02000000) -- CPU_ReadMem(60 bytes @ 0x00000008) - Data: AA AA AA AA AA AA AA AA AA AA AA AA AA AA AA AA ...  returns 0xFFFFFFFF (0001ms, 8312ms total)
T27CC 669:189 JLINK_ReadMemEx(0x00000008, 0x0008 Bytes, ..., Flags = 0x02000000) -- CPU_ReadMem(8 bytes @ 0x00000008) - Data: AA AA AA AA AA AA AA AA  returns 0xFFFFFFFF (0001ms, 8313ms total)
T27CC 669:190 JLINK_ReadMemEx(0x00000008, 0x0004 Bytes, ..., Flags = 0x02000000) -- CPU_ReadMem(4 bytes @ 0x00000008) - Data: AA AA AA AA  returns 0xFFFFFFFF (0001ms, 8314ms total)
T27CC 669:191 JLINK_ReadMemEx(0x00000008, 0x0002 Bytes, ..., Flags = 0x02000000) -- CPU_ReadMem(2 bytes @ 0x00000008) - Data: AA AA  returns 0xFFFFFFFF (0001ms, 8315ms total)
T27CC 669:192 JLINK_ReadMemEx(0x00000008, 0x0001 Bytes, ..., Flags = 0x02000000) -- CPU_ReadMem(1 bytes @ 0x00000008) - Data: AA  returns 0xFFFFFFFF (0001ms, 8316ms total)
T27CC 669:193 JLINK_ReadMemEx(0x00000008, 0x0002 Bytes, ..., Flags = 0x02000000) -- CPU_ReadMem(2 bytes @ 0x00000008) - Data: AA AA  returns 0xFFFFFFFF (0001ms, 8317ms total)
T27CC 669:194 JLINK_ReadMemEx(0x00000008, 0x0002 Bytes, ..., Flags = 0x02000000) -- CPU_ReadMem(2 bytes @ 0x00000008) - Data: AA AA  returns 0xFFFFFFFF (0001ms, 8318ms total)
T27CC 669:195 JLINK_ReadMemEx(0x00000008, 0x0002 Bytes, ..., Flags = 0x02000000) -- CPU_ReadMem(2 bytes @ 0x00000008) - Data: AA AA  returns 0xFFFFFFFF (0000ms, 8318ms total)
T27CC 669:195 JLINK_ReadMemEx(0x00000008, 0x0002 Bytes, ..., Flags = 0x02000000) -- CPU_ReadMem(2 bytes @ 0x00000008) - Data: AA AA  returns 0xFFFFFFFF (0001ms, 8319ms total)
T27CC 669:196 JLINK_ReadMemEx(0x00000008, 0x0002 Bytes, ..., Flags = 0x02000000) -- CPU_ReadMem(2 bytes @ 0x00000008) - Data: AA AA  returns 0xFFFFFFFF (0001ms, 8320ms total)
T27CC 669:197 JLINK_ReadMemEx(0x00000008, 0x0001 Bytes, ..., Flags = 0x02000000) -- CPU_ReadMem(1 bytes @ 0x00000008) - Data: AA  returns 0xFFFFFFFF (0001ms, 8321ms total)
T27CC 669:201 JLINK_ReadMemEx(0x00000000, 0x003C Bytes, ..., Flags = 0x02000000) -- CPU_ReadMem(60 bytes @ 0x00000000) - Data: AA AA AA AA AA AA AA AA AA AA AA AA AA AA AA AA ...  returns 0xFFFFFFFF (0001ms, 8322ms total)
T27CC 669:202 JLINK_ReadMemEx(0x00000000, 0x003C Bytes, ..., Flags = 0x02000000) -- CPU_ReadMem(60 bytes @ 0x00000000) - Data: AA AA AA AA AA AA AA AA AA AA AA AA AA AA AA AA ...  returns 0xFFFFFFFF (0002ms, 8324ms total)
T27CC 669:204 JLINK_ReadMemEx(0x00000000, 0x0010 Bytes, ..., Flags = 0x02000000) -- CPU_ReadMem(16 bytes @ 0x00000000) - Data: AA AA AA AA AA AA AA AA AA AA AA AA AA AA AA AA  returns 0xFFFFFFFF (0001ms, 8325ms total)
T27CC 669:205 JLINK_ReadMemEx(0x00000000, 0x0004 Bytes, ..., Flags = 0x02000000) -- CPU_ReadMem(4 bytes @ 0x00000000) - Data: 50 91 00 A3  returns 0x04 (0000ms, 8325ms total)
T27CC 669:205 JLINK_ReadMemEx(0x00000002, 0x0002 Bytes, ..., Flags = 0x02000000) -- CPU_ReadMem(2 bytes @ 0x00000002) - Data: 00 A3  returns 0x02 (0001ms, 8326ms total)
T27CC 669:206 JLINK_ReadMemEx(0x00000004, 0x003C Bytes, ..., Flags = 0x02000000) -- CPU_ReadMem(60 bytes @ 0x00000004) - Data: AA AA AA AA AA AA AA AA AA AA AA AA AA AA AA AA ...  returns 0xFFFFFFFF (0001ms, 8327ms total)
T27CC 669:207 JLINK_ReadMemEx(0x00000004, 0x003C Bytes, ..., Flags = 0x02000000) -- CPU_ReadMem(60 bytes @ 0x00000004) - Data: AA AA AA AA AA AA AA AA AA AA AA AA AA AA AA AA ...  returns 0xFFFFFFFF (0001ms, 8328ms total)
T27CC 669:208 JLINK_ReadMemEx(0x00000004, 0x000C Bytes, ..., Flags = 0x02000000) -- CPU_ReadMem(12 bytes @ 0x00000004) - Data: AA AA AA AA AA AA AA AA AA AA AA AA  returns 0xFFFFFFFF (0001ms, 8329ms total)
T27CC 669:209 JLINK_ReadMemEx(0x00000004, 0x0004 Bytes, ..., Flags = 0x02000000) -- CPU_ReadMem(4 bytes @ 0x00000004) - Data: D2 4A 62 C0  returns 0x04 (0001ms, 8330ms total)
T27CC 669:210 JLINK_ReadMemEx(0x00000002, 0x0002 Bytes, ..., Flags = 0x02000000) -- CPU_ReadMem(2 bytes @ 0x00000002) - Data: 00 A3  returns 0x02 (0000ms, 8330ms total)
T27CC 669:210 JLINK_ReadMemEx(0x00000004, 0x003C Bytes, ..., Flags = 0x02000000) -- CPU_ReadMem(60 bytes @ 0x00000004) - Data: AA AA AA AA AA AA AA AA AA AA AA AA AA AA AA AA ...  returns 0xFFFFFFFF (0002ms, 8332ms total)
T27CC 669:212 JLINK_ReadMemEx(0x00000004, 0x003C Bytes, ..., Flags = 0x02000000) -- CPU_ReadMem(60 bytes @ 0x00000004) - Data: AA AA AA AA AA AA AA AA AA AA AA AA AA AA AA AA ...  returns 0xFFFFFFFF (0001ms, 8333ms total)
T27CC 669:213 JLINK_ReadMemEx(0x00000004, 0x000C Bytes, ..., Flags = 0x02000000) -- CPU_ReadMem(12 bytes @ 0x00000004) - Data: AA AA AA AA AA AA AA AA AA AA AA AA  returns 0xFFFFFFFF (0001ms, 8334ms total)
T27CC 669:214 JLINK_ReadMemEx(0x00000004, 0x0004 Bytes, ..., Flags = 0x02000000) -- CPU_ReadMem(4 bytes @ 0x00000004) - Data: D2 4A 62 C0  returns 0x04 (0001ms, 8335ms total)
T27CC 669:215 JLINK_ReadMemEx(0x00000002, 0x0002 Bytes, ..., Flags = 0x02000000) -- CPU_ReadMem(2 bytes @ 0x00000002) - Data: 00 A3  returns 0x02 (0001ms, 8336ms total)
T27CC 669:216 JLINK_ReadMemEx(0x00000004, 0x003C Bytes, ..., Flags = 0x02000000) -- CPU_ReadMem(60 bytes @ 0x00000004) - Data: AA AA AA AA AA AA AA AA AA AA AA AA AA AA AA AA ...  returns 0xFFFFFFFF (0001ms, 8337ms total)
T27CC 669:217 JLINK_ReadMemEx(0x00000004, 0x003C Bytes, ..., Flags = 0x02000000) -- CPU_ReadMem(60 bytes @ 0x00000004) - Data: AA AA AA AA AA AA AA AA AA AA AA AA AA AA AA AA ...  returns 0xFFFFFFFF (0001ms, 8338ms total)
T27CC 669:218 JLINK_ReadMemEx(0x00000004, 0x000C Bytes, ..., Flags = 0x02000000) -- CPU_ReadMem(12 bytes @ 0x00000004) - Data: AA AA AA AA AA AA AA AA AA AA AA AA  returns 0xFFFFFFFF (0001ms, 8339ms total)
T27CC 669:219 JLINK_ReadMemEx(0x00000004, 0x0004 Bytes, ..., Flags = 0x02000000) -- CPU_ReadMem(4 bytes @ 0x00000004) - Data: D2 4A 62 C0  returns 0x04 (0001ms, 8340ms total)
T27CC 669:220 JLINK_ReadMemEx(0x00000004, 0x003C Bytes, ..., Flags = 0x02000000) -- CPU_ReadMem(60 bytes @ 0x00000004) - Data: AA AA AA AA AA AA AA AA AA AA AA AA AA AA AA AA ...  returns 0xFFFFFFFF (0001ms, 8341ms total)
T27CC 669:221 JLINK_ReadMemEx(0x00000004, 0x003C Bytes, ..., Flags = 0x02000000) -- CPU_ReadMem(60 bytes @ 0x00000004) - Data: AA AA AA AA AA AA AA AA AA AA AA AA AA AA AA AA ...  returns 0xFFFFFFFF (0001ms, 8342ms total)
T27CC 669:222 JLINK_ReadMemEx(0x00000004, 0x000C Bytes, ..., Flags = 0x02000000) -- CPU_ReadMem(12 bytes @ 0x00000004) - Data: AA AA AA AA AA AA AA AA AA AA AA AA  returns 0xFFFFFFFF (0001ms, 8343ms total)
T27CC 669:223 JLINK_ReadMemEx(0x00000004, 0x0004 Bytes, ..., Flags = 0x02000000) -- CPU_ReadMem(4 bytes @ 0x00000004) - Data: D2 4A 62 C0  returns 0x04 (0000ms, 8343ms total)
T27CC 669:223 JLINK_ReadMemEx(0x00000004, 0x003C Bytes, ..., Flags = 0x02000000) -- CPU_ReadMem(60 bytes @ 0x00000004) - Data: AA AA AA AA AA AA AA AA AA AA AA AA AA AA AA AA ...  returns 0xFFFFFFFF (0001ms, 8344ms total)
T27CC 669:224 JLINK_ReadMemEx(0x00000004, 0x003C Bytes, ..., Flags = 0x02000000) -- CPU_ReadMem(60 bytes @ 0x00000004) - Data: AA AA AA AA AA AA AA AA AA AA AA AA AA AA AA AA ...  returns 0xFFFFFFFF (0001ms, 8345ms total)
T27CC 669:225 JLINK_ReadMemEx(0x00000004, 0x000C Bytes, ..., Flags = 0x02000000) -- CPU_ReadMem(12 bytes @ 0x00000004) - Data: AA AA AA AA AA AA AA AA AA AA AA AA  returns 0xFFFFFFFF (0001ms, 8346ms total)
T27CC 669:226 JLINK_ReadMemEx(0x00000004, 0x0004 Bytes, ..., Flags = 0x02000000) -- CPU_ReadMem(4 bytes @ 0x00000004) - Data: D2 4A 62 C0  returns 0x04 (0000ms, 8346ms total)
T27CC 669:226 JLINK_ReadMemEx(0x00000004, 0x003C Bytes, ..., Flags = 0x02000000) -- CPU_ReadMem(60 bytes @ 0x00000004) - Data: AA AA AA AA AA AA AA AA AA AA AA AA AA AA AA AA ...  returns 0xFFFFFFFF (0001ms, 8347ms total)
T27CC 669:227 JLINK_ReadMemEx(0x00000004, 0x003C Bytes, ..., Flags = 0x02000000) -- CPU_ReadMem(60 bytes @ 0x00000004) - Data: AA AA AA AA AA AA AA AA AA AA AA AA AA AA AA AA ...  returns 0xFFFFFFFF (0001ms, 8348ms total)
T27CC 669:228 JLINK_ReadMemEx(0x00000004, 0x000C Bytes, ..., Flags = 0x02000000) -- CPU_ReadMem(12 bytes @ 0x00000004) - Data: AA AA AA AA AA AA AA AA AA AA AA AA  returns 0xFFFFFFFF (0001ms, 8349ms total)
T27CC 669:229 JLINK_ReadMemEx(0x00000004, 0x0004 Bytes, ..., Flags = 0x02000000) -- CPU_ReadMem(4 bytes @ 0x00000004) - Data: D2 4A 62 C0  returns 0x04 (0001ms, 8350ms total)
T27CC 669:240 JLINK_ReadMemEx(0x00000000, 0x003C Bytes, ..., Flags = 0x02000000) -- CPU_ReadMem(60 bytes @ 0x00000000) - Data: AA AA AA AA AA AA AA AA AA AA AA AA AA AA AA AA ...  returns 0xFFFFFFFF (0001ms, 8351ms total)
T27CC 669:241 JLINK_ReadMemEx(0x00000000, 0x003C Bytes, ..., Flags = 0x02000000) -- CPU_ReadMem(60 bytes @ 0x00000000) - Data: AA AA AA AA AA AA AA AA AA AA AA AA AA AA AA AA ...  returns 0xFFFFFFFF (0001ms, 8352ms total)
T27CC 669:242 JLINK_ReadMemEx(0x00000000, 0x0010 Bytes, ..., Flags = 0x02000000) -- CPU_ReadMem(16 bytes @ 0x00000000) - Data: AA AA AA AA AA AA AA AA AA AA AA AA AA AA AA AA  returns 0xFFFFFFFF (0001ms, 8353ms total)
T27CC 669:243 JLINK_ReadMemEx(0x00000000, 0x0004 Bytes, ..., Flags = 0x02000000) -- CPU_ReadMem(4 bytes @ 0x00000000) - Data: 50 91 00 A3  returns 0x04 (0001ms, 8354ms total)
T27CC 669:244 JLINK_ReadMemEx(0x00000002, 0x0002 Bytes, ..., Flags = 0x02000000) -- CPU_ReadMem(2 bytes @ 0x00000002) - Data: 00 A3  returns 0x02 (0001ms, 8355ms total)
T27CC 669:245 JLINK_ReadMemEx(0x00000004, 0x003C Bytes, ..., Flags = 0x02000000) -- CPU_ReadMem(60 bytes @ 0x00000004) - Data: AA AA AA AA AA AA AA AA AA AA AA AA AA AA AA AA ...  returns 0xFFFFFFFF (0001ms, 8356ms total)
T27CC 669:246 JLINK_ReadMemEx(0x00000004, 0x003C Bytes, ..., Flags = 0x02000000) -- CPU_ReadMem(60 bytes @ 0x00000004) - Data: AA AA AA AA AA AA AA AA AA AA AA AA AA AA AA AA ...  returns 0xFFFFFFFF (0001ms, 8357ms total)
T27CC 669:247 JLINK_ReadMemEx(0x00000004, 0x000C Bytes, ..., Flags = 0x02000000) -- CPU_ReadMem(12 bytes @ 0x00000004) - Data: AA AA AA AA AA AA AA AA AA AA AA AA  returns 0xFFFFFFFF (0001ms, 8358ms total)
T27CC 669:248 JLINK_ReadMemEx(0x00000004, 0x0004 Bytes, ..., Flags = 0x02000000) -- CPU_ReadMem(4 bytes @ 0x00000004) - Data: D2 4A 62 C0  returns 0x04 (0000ms, 8358ms total)
T27CC 669:249 JLINK_ReadMemEx(0x00000002, 0x0002 Bytes, ..., Flags = 0x02000000) -- CPU_ReadMem(2 bytes @ 0x00000002) - Data: 00 A3  returns 0x02 (0000ms, 8358ms total)
T27CC 669:249 JLINK_ReadMemEx(0x00000004, 0x003C Bytes, ..., Flags = 0x02000000) -- CPU_ReadMem(60 bytes @ 0x00000004) - Data: AA AA AA AA AA AA AA AA AA AA AA AA AA AA AA AA ...  returns 0xFFFFFFFF (0001ms, 8359ms total)
T27CC 669:250 JLINK_ReadMemEx(0x00000004, 0x003C Bytes, ..., Flags = 0x02000000) -- CPU_ReadMem(60 bytes @ 0x00000004) - Data: AA AA AA AA AA AA AA AA AA AA AA AA AA AA AA AA ...  returns 0xFFFFFFFF (0001ms, 8360ms total)
T27CC 669:251 JLINK_ReadMemEx(0x00000004, 0x000C Bytes, ..., Flags = 0x02000000) -- CPU_ReadMem(12 bytes @ 0x00000004) - Data: AA AA AA AA AA AA AA AA AA AA AA AA  returns 0xFFFFFFFF (0005ms, 8365ms total)
T27CC 669:256 JLINK_ReadMemEx(0x00000004, 0x0004 Bytes, ..., Flags = 0x02000000) -- CPU_ReadMem(4 bytes @ 0x00000004) - Data: D2 4A 62 C0  returns 0x04 (0001ms, 8366ms total)
T27CC 669:257 JLINK_ReadMemEx(0x00000002, 0x0002 Bytes, ..., Flags = 0x02000000) -- CPU_ReadMem(2 bytes @ 0x00000002) - Data: 00 A3  returns 0x02 (0002ms, 8368ms total)
T27CC 669:259 JLINK_ReadMemEx(0x00000004, 0x003C Bytes, ..., Flags = 0x02000000) -- CPU_ReadMem(60 bytes @ 0x00000004) - Data: AA AA AA AA AA AA AA AA AA AA AA AA AA AA AA AA ...  returns 0xFFFFFFFF (0001ms, 8369ms total)
T27CC 669:260 JLINK_ReadMemEx(0x00000004, 0x003C Bytes, ..., Flags = 0x02000000) -- CPU_ReadMem(60 bytes @ 0x00000004) - Data: AA AA AA AA AA AA AA AA AA AA AA AA AA AA AA AA ...  returns 0xFFFFFFFF (0001ms, 8370ms total)
T27CC 669:261 JLINK_ReadMemEx(0x00000004, 0x000C Bytes, ..., Flags = 0x02000000) -- CPU_ReadMem(12 bytes @ 0x00000004) - Data: AA AA AA AA AA AA AA AA AA AA AA AA  returns 0xFFFFFFFF (0002ms, 8372ms total)
T27CC 669:263 JLINK_ReadMemEx(0x00000004, 0x0004 Bytes, ..., Flags = 0x02000000) -- CPU_ReadMem(4 bytes @ 0x00000004) - Data: D2 4A 62 C0  returns 0x04 (0000ms, 8372ms total)
T27CC 669:293 JLINK_ReadMemEx(0x00000000, 0x003C Bytes, ..., Flags = 0x02000000) -- CPU_ReadMem(60 bytes @ 0x00000000) - Data: AA AA AA AA AA AA AA AA AA AA AA AA AA AA AA AA ...  returns 0xFFFFFFFF (0002ms, 8374ms total)
T27CC 669:295 JLINK_ReadMemEx(0x00000000, 0x003C Bytes, ..., Flags = 0x02000000) -- CPU_ReadMem(60 bytes @ 0x00000000) - Data: AA AA AA AA AA AA AA AA AA AA AA AA AA AA AA AA ...  returns 0xFFFFFFFF (0001ms, 8375ms total)
T27CC 669:296 JLINK_ReadMemEx(0x00000000, 0x0010 Bytes, ..., Flags = 0x02000000) -- CPU_ReadMem(16 bytes @ 0x00000000) - Data: AA AA AA AA AA AA AA AA AA AA AA AA AA AA AA AA  returns 0xFFFFFFFF (0001ms, 8376ms total)
T27CC 669:298 JLINK_ReadMemEx(0x00000000, 0x0004 Bytes, ..., Flags = 0x02000000) -- CPU_ReadMem(4 bytes @ 0x00000000) - Data: 50 91 00 A3  returns 0x04 (0001ms, 8377ms total)
T27CC 669:299 JLINK_ReadMemEx(0x00000002, 0x0002 Bytes, ..., Flags = 0x02000000) -- CPU_ReadMem(2 bytes @ 0x00000002) - Data: 00 A3  returns 0x02 (0001ms, 8378ms total)
T27CC 669:300 JLINK_ReadMemEx(0x00000004, 0x003C Bytes, ..., Flags = 0x02000000) -- CPU_ReadMem(60 bytes @ 0x00000004) - Data: AA AA AA AA AA AA AA AA AA AA AA AA AA AA AA AA ...  returns 0xFFFFFFFF (0001ms, 8379ms total)
T27CC 669:301 JLINK_ReadMemEx(0x00000004, 0x003C Bytes, ..., Flags = 0x02000000) -- CPU_ReadMem(60 bytes @ 0x00000004) - Data: AA AA AA AA AA AA AA AA AA AA AA AA AA AA AA AA ...  returns 0xFFFFFFFF (0001ms, 8380ms total)
T27CC 669:302 JLINK_ReadMemEx(0x00000004, 0x000C Bytes, ..., Flags = 0x02000000) -- CPU_ReadMem(12 bytes @ 0x00000004) - Data: AA AA AA AA AA AA AA AA AA AA AA AA  returns 0xFFFFFFFF (0001ms, 8381ms total)
T27CC 669:303 JLINK_ReadMemEx(0x00000004, 0x0004 Bytes, ..., Flags = 0x02000000) -- CPU_ReadMem(4 bytes @ 0x00000004) - Data: D2 4A 62 C0  returns 0x04 (0001ms, 8382ms total)
T27CC 669:304 JLINK_ReadMemEx(0x00000002, 0x0002 Bytes, ..., Flags = 0x02000000) -- CPU_ReadMem(2 bytes @ 0x00000002) - Data: 00 A3  returns 0x02 (0001ms, 8383ms total)
T27CC 669:305 JLINK_ReadMemEx(0x00000004, 0x003C Bytes, ..., Flags = 0x02000000) -- CPU_ReadMem(60 bytes @ 0x00000004) - Data: AA AA AA AA AA AA AA AA AA AA AA AA AA AA AA AA ...  returns 0xFFFFFFFF (0002ms, 8385ms total)
T27CC 669:307 JLINK_ReadMemEx(0x00000004, 0x003C Bytes, ..., Flags = 0x02000000) -- CPU_ReadMem(60 bytes @ 0x00000004) - Data: AA AA AA AA AA AA AA AA AA AA AA AA AA AA AA AA ...  returns 0xFFFFFFFF (0001ms, 8386ms total)
T27CC 669:308 JLINK_ReadMemEx(0x00000004, 0x000C Bytes, ..., Flags = 0x02000000) -- CPU_ReadMem(12 bytes @ 0x00000004) - Data: AA AA AA AA AA AA AA AA AA AA AA AA  returns 0xFFFFFFFF (0001ms, 8387ms total)
T27CC 669:309 JLINK_ReadMemEx(0x00000004, 0x0004 Bytes, ..., Flags = 0x02000000) -- CPU_ReadMem(4 bytes @ 0x00000004) - Data: D2 4A 62 C0  returns 0x04 (0001ms, 8388ms total)
T27CC 669:310 JLINK_ReadMemEx(0x00000002, 0x0002 Bytes, ..., Flags = 0x02000000) -- CPU_ReadMem(2 bytes @ 0x00000002) - Data: 00 A3  returns 0x02 (0000ms, 8388ms total)
T27CC 669:310 JLINK_ReadMemEx(0x00000004, 0x003C Bytes, ..., Flags = 0x02000000) -- CPU_ReadMem(60 bytes @ 0x00000004) - Data: AA AA AA AA AA AA AA AA AA AA AA AA AA AA AA AA ...  returns 0xFFFFFFFF (0001ms, 8389ms total)
T27CC 669:311 JLINK_ReadMemEx(0x00000004, 0x003C Bytes, ..., Flags = 0x02000000) -- CPU_ReadMem(60 bytes @ 0x00000004) - Data: AA AA AA AA AA AA AA AA AA AA AA AA AA AA AA AA ...  returns 0xFFFFFFFF (0001ms, 8390ms total)
T27CC 669:312 JLINK_ReadMemEx(0x00000004, 0x000C Bytes, ..., Flags = 0x02000000) -- CPU_ReadMem(12 bytes @ 0x00000004) - Data: AA AA AA AA AA AA AA AA AA AA AA AA  returns 0xFFFFFFFF (0001ms, 8391ms total)
T27CC 669:313 JLINK_ReadMemEx(0x00000004, 0x0004 Bytes, ..., Flags = 0x02000000) -- CPU_ReadMem(4 bytes @ 0x00000004) - Data: D2 4A 62 C0  returns 0x04 (0000ms, 8391ms total)
T27CC 669:314 JLINK_ReadMemEx(0x00000004, 0x003C Bytes, ..., Flags = 0x02000000) -- CPU_ReadMem(60 bytes @ 0x00000004) - Data: AA AA AA AA AA AA AA AA AA AA AA AA AA AA AA AA ...  returns 0xFFFFFFFF (0000ms, 8391ms total)
T27CC 669:314 JLINK_ReadMemEx(0x00000004, 0x003C Bytes, ..., Flags = 0x02000000) -- CPU_ReadMem(60 bytes @ 0x00000004) - Data: AA AA AA AA AA AA AA AA AA AA AA AA AA AA AA AA ...  returns 0xFFFFFFFF (0001ms, 8392ms total)
T27CC 669:315 JLINK_ReadMemEx(0x00000004, 0x000C Bytes, ..., Flags = 0x02000000) -- CPU_ReadMem(12 bytes @ 0x00000004) - Data: AA AA AA AA AA AA AA AA AA AA AA AA  returns 0xFFFFFFFF (0001ms, 8393ms total)
T27CC 669:316 JLINK_ReadMemEx(0x00000004, 0x0004 Bytes, ..., Flags = 0x02000000) -- CPU_ReadMem(4 bytes @ 0x00000004) - Data: D2 4A 62 C0  returns 0x04 (0001ms, 8394ms total)
T27CC 669:317 JLINK_ReadMemEx(0x00000004, 0x003C Bytes, ..., Flags = 0x02000000) -- CPU_ReadMem(60 bytes @ 0x00000004) - Data: AA AA AA AA AA AA AA AA AA AA AA AA AA AA AA AA ...  returns 0xFFFFFFFF (0001ms, 8395ms total)
T27CC 669:318 JLINK_ReadMemEx(0x00000004, 0x003C Bytes, ..., Flags = 0x02000000) -- CPU_ReadMem(60 bytes @ 0x00000004) - Data: AA AA AA AA AA AA AA AA AA AA AA AA AA AA AA AA ...  returns 0xFFFFFFFF (0001ms, 8396ms total)
T27CC 669:319 JLINK_ReadMemEx(0x00000004, 0x000C Bytes, ..., Flags = 0x02000000) -- CPU_ReadMem(12 bytes @ 0x00000004) - Data: AA AA AA AA AA AA AA AA AA AA AA AA  returns 0xFFFFFFFF (0001ms, 8397ms total)
T27CC 669:320 JLINK_ReadMemEx(0x00000004, 0x0004 Bytes, ..., Flags = 0x02000000) -- CPU_ReadMem(4 bytes @ 0x00000004) - Data: D2 4A 62 C0  returns 0x04 (0000ms, 8397ms total)
T27CC 669:320 JLINK_ReadMemEx(0x00000004, 0x003C Bytes, ..., Flags = 0x02000000) -- CPU_ReadMem(60 bytes @ 0x00000004) - Data: AA AA AA AA AA AA AA AA AA AA AA AA AA AA AA AA ...  returns 0xFFFFFFFF (0001ms, 8398ms total)
T27CC 669:321 JLINK_ReadMemEx(0x00000004, 0x003C Bytes, ..., Flags = 0x02000000) -- CPU_ReadMem(60 bytes @ 0x00000004) - Data: AA AA AA AA AA AA AA AA AA AA AA AA AA AA AA AA ...  returns 0xFFFFFFFF (0001ms, 8399ms total)
T27CC 669:322 JLINK_ReadMemEx(0x00000004, 0x000C Bytes, ..., Flags = 0x02000000) -- CPU_ReadMem(12 bytes @ 0x00000004) - Data: AA AA AA AA AA AA AA AA AA AA AA AA  returns 0xFFFFFFFF (0001ms, 8400ms total)
T27CC 669:323 JLINK_ReadMemEx(0x00000004, 0x0004 Bytes, ..., Flags = 0x02000000) -- CPU_ReadMem(4 bytes @ 0x00000004) - Data: D2 4A 62 C0  returns 0x04 (0000ms, 8400ms total)
T27CC 669:462 JLINK_ReadReg(R0)  returns 0xA05F0003 (0001ms, 8401ms total)
T27CC 669:463 JLINK_ReadReg(R1)  returns 0xE000EDF0 (0000ms, 8401ms total)
T27CC 669:463 JLINK_ReadReg(R2)  returns 0xA05F0003 (0000ms, 8401ms total)
T27CC 669:463 JLINK_ReadReg(R3)  returns 0x10004000 (0000ms, 8401ms total)
T27CC 669:463 JLINK_ReadReg(R4)  returns 0x400401A0 (0000ms, 8401ms total)
T27CC 669:463 JLINK_ReadReg(R5)  returns 0x10008009 (0000ms, 8401ms total)
T27CC 669:463 JLINK_ReadReg(R6)  returns 0x10008008 (0000ms, 8401ms total)
T27CC 669:463 JLINK_ReadReg(R7)  returns 0x10004000 (0000ms, 8401ms total)
T27CC 669:463 JLINK_ReadReg(R8)  returns 0x00000100 (0000ms, 8401ms total)
T27CC 669:463 JLINK_ReadReg(R9)  returns 0x00000000 (0000ms, 8401ms total)
T27CC 669:463 JLINK_ReadReg(R10)  returns 0x00000000 (0000ms, 8401ms total)
T27CC 669:463 JLINK_ReadReg(R11)  returns 0x00000000 (0000ms, 8401ms total)
T27CC 669:463 JLINK_ReadReg(R12)  returns 0x80000000 (0000ms, 8401ms total)
T27CC 669:463 JLINK_ReadReg(R13 (SP))  returns 0x10003FD4 (0000ms, 8401ms total)
T27CC 669:463 JLINK_ReadReg(R14)  returns 0x000037B9 (0000ms, 8401ms total)
T27CC 669:463 JLINK_ReadReg(R15 (PC))  returns 0x000008BE (0000ms, 8401ms total)
T27CC 669:463 JLINK_ReadReg(XPSR)  returns 0x81000000 (0000ms, 8401ms total)
T27CC 669:463 JLINK_ReadReg(MSP)  returns 0x10003FD4 (0000ms, 8401ms total)
T27CC 669:463 JLINK_ReadReg(PSP)  returns 0x00000000 (0000ms, 8401ms total)
T27CC 669:463 JLINK_ReadReg(CFBP)  returns 0x04000000 (0000ms, 8401ms total)
T27CC 669:463 JLINK_ReadReg(FPSCR)  returns 0x02000000 (0010ms, 8411ms total)
T27CC 669:473 JLINK_ReadReg(FPS0)  returns 0x00000000 (0000ms, 8411ms total)
T27CC 669:473 JLINK_ReadReg(FPS1)  returns 0x00000000 (0000ms, 8411ms total)
T27CC 669:473 JLINK_ReadReg(FPS2)  returns 0x00000000 (0001ms, 8412ms total)
T27CC 669:474 JLINK_ReadReg(FPS3)  returns 0x00000000 (0000ms, 8412ms total)
T27CC 669:474 JLINK_ReadReg(FPS4)  returns 0x00000000 (0000ms, 8412ms total)
T27CC 669:474 JLINK_ReadReg(FPS5)  returns 0x00000000 (0000ms, 8412ms total)
T27CC 669:474 JLINK_ReadReg(FPS6)  returns 0x00000000 (0000ms, 8412ms total)
T27CC 669:474 JLINK_ReadReg(FPS7)  returns 0x00000000 (0000ms, 8412ms total)
T27CC 669:474 JLINK_ReadReg(FPS8)  returns 0x00000000 (0000ms, 8412ms total)
T27CC 669:474 JLINK_ReadReg(FPS9)  returns 0x00000000 (0000ms, 8412ms total)
T27CC 669:474 JLINK_ReadReg(FPS10)  returns 0x00000000 (0000ms, 8412ms total)
T27CC 669:474 JLINK_ReadReg(FPS11)  returns 0x00000000 (0000ms, 8412ms total)
T27CC 669:474 JLINK_ReadReg(FPS12)  returns 0x00000000 (0000ms, 8412ms total)
T27CC 669:474 JLINK_ReadReg(FPS13)  returns 0x00000000 (0000ms, 8412ms total)
T27CC 669:474 JLINK_ReadReg(FPS14)  returns 0x00000000 (0000ms, 8412ms total)
T27CC 669:474 JLINK_ReadReg(FPS15)  returns 0x00000000 (0000ms, 8412ms total)
T27CC 669:474 JLINK_ReadReg(FPS16)  returns 0x00000000 (0000ms, 8412ms total)
T27CC 669:474 JLINK_ReadReg(FPS17)  returns 0x00000000 (0000ms, 8412ms total)
T27CC 669:474 JLINK_ReadReg(FPS18)  returns 0x00000000 (0000ms, 8412ms total)
T27CC 669:474 JLINK_ReadReg(FPS19)  returns 0x00000000 (0000ms, 8412ms total)
T27CC 669:474 JLINK_ReadReg(FPS20)  returns 0x00000000 (0000ms, 8412ms total)
T27CC 669:474 JLINK_ReadReg(FPS21)  returns 0x00000000 (0000ms, 8412ms total)
T27CC 669:474 JLINK_ReadReg(FPS22)  returns 0x00000000 (0000ms, 8412ms total)
T27CC 669:474 JLINK_ReadReg(FPS23)  returns 0x00000000 (0000ms, 8412ms total)
T27CC 669:474 JLINK_ReadReg(FPS24)  returns 0x00000000 (0000ms, 8412ms total)
T27CC 669:474 JLINK_ReadReg(FPS25)  returns 0x00000000 (0000ms, 8412ms total)
T27CC 669:474 JLINK_ReadReg(FPS26)  returns 0x00000000 (0000ms, 8412ms total)
T27CC 669:474 JLINK_ReadReg(FPS27)  returns 0x00000000 (0000ms, 8412ms total)
T27CC 669:474 JLINK_ReadReg(FPS28)  returns 0x00000000 (0000ms, 8412ms total)
T27CC 669:474 JLINK_ReadReg(FPS29)  returns 0x00000000 (0000ms, 8412ms total)
T27CC 669:474 JLINK_ReadReg(FPS30)  returns 0x00000000 (0000ms, 8412ms total)
T27CC 669:474 JLINK_ReadReg(FPS31)  returns 0x00000000 (0000ms, 8412ms total)
T27CC 669:858 JLINK_ReadMemEx(0x0000C000, 0x0004 Bytes, ..., Flags = 0x02000000) -- CPU_ReadMem(64 bytes @ 0x0000C000) -- Updating C cache (64 bytes @ 0x0000C000) -- Read from C cache (4 bytes @ 0x0000C000) - Data: 88 37 00 10  returns 0x04 (0005ms, 8417ms total)
T27CC 669:863 JLINK_WriteReg(R13 (SP), 0x10003788)  returns 0x00 (0000ms, 8417ms total)
T27CC 669:863 JLINK_ReadReg(R0)  returns 0xA05F0003 (0000ms, 8417ms total)
T27CC 669:863 JLINK_ReadReg(R1)  returns 0xE000EDF0 (0000ms, 8417ms total)
T27CC 669:863 JLINK_ReadReg(R2)  returns 0xA05F0003 (0000ms, 8417ms total)
T27CC 669:863 JLINK_ReadReg(R3)  returns 0x10004000 (0000ms, 8417ms total)
T27CC 669:863 JLINK_ReadReg(R4)  returns 0x400401A0 (0001ms, 8418ms total)
T27CC 669:864 JLINK_ReadReg(R5)  returns 0x10008009 (0000ms, 8418ms total)
T27CC 669:864 JLINK_ReadReg(R6)  returns 0x10008008 (0000ms, 8418ms total)
T27CC 669:864 JLINK_ReadReg(R7)  returns 0x10004000 (0000ms, 8418ms total)
T27CC 669:864 JLINK_ReadReg(R8)  returns 0x00000100 (0000ms, 8418ms total)
T27CC 669:864 JLINK_ReadReg(R9)  returns 0x00000000 (0000ms, 8418ms total)
T27CC 669:864 JLINK_ReadReg(R10)  returns 0x00000000 (0000ms, 8418ms total)
T27CC 669:864 JLINK_ReadReg(R11)  returns 0x00000000 (0000ms, 8418ms total)
T27CC 669:864 JLINK_ReadReg(R12)  returns 0x80000000 (0000ms, 8418ms total)
T27CC 669:864 JLINK_ReadReg(R13 (SP))  returns 0x10003788 (0000ms, 8418ms total)
T27CC 669:864 JLINK_ReadReg(R14)  returns 0x000037B9 (0000ms, 8418ms total)
T27CC 669:864 JLINK_ReadReg(R15 (PC))  returns 0x000008BE (0000ms, 8418ms total)
T27CC 669:868 JLINK_ReadReg(XPSR)  returns 0x81000000 (0000ms, 8418ms total)
T27CC 669:868 JLINK_ReadReg(MSP)  returns 0x10003788 (0000ms, 8418ms total)
T27CC 669:868 JLINK_ReadReg(PSP)  returns 0x00000000 (0000ms, 8418ms total)
T27CC 669:869 JLINK_ReadReg(CFBP)  returns 0x04000000 (0000ms, 8419ms total)
T27CC 669:869 JLINK_ReadReg(FPSCR)  returns 0x02000000 (0000ms, 8419ms total)
T27CC 669:869 JLINK_ReadReg(FPS0)  returns 0x00000000 (0000ms, 8419ms total)
T27CC 669:869 JLINK_ReadReg(FPS1)  returns 0x00000000 (0000ms, 8419ms total)
T27CC 669:869 JLINK_ReadReg(FPS2)  returns 0x00000000 (0000ms, 8419ms total)
T27CC 669:869 JLINK_ReadReg(FPS3)  returns 0x00000000 (0000ms, 8419ms total)
T27CC 669:869 JLINK_ReadReg(FPS4)  returns 0x00000000 (0000ms, 8419ms total)
T27CC 669:869 JLINK_ReadReg(FPS5)  returns 0x00000000 (0000ms, 8419ms total)
T27CC 669:869 JLINK_ReadReg(FPS6)  returns 0x00000000 (0000ms, 8419ms total)
T27CC 669:870 JLINK_ReadReg(FPS7)  returns 0x00000000 (0000ms, 8419ms total)
T27CC 669:870 JLINK_ReadReg(FPS8)  returns 0x00000000 (0000ms, 8419ms total)
T27CC 669:870 JLINK_ReadReg(FPS9)  returns 0x00000000 (0000ms, 8419ms total)
T27CC 669:870 JLINK_ReadReg(FPS10)  returns 0x00000000 (0000ms, 8419ms total)
T27CC 669:870 JLINK_ReadReg(FPS11)  returns 0x00000000 (0000ms, 8419ms total)
T27CC 669:870 JLINK_ReadReg(FPS12)  returns 0x00000000 (0000ms, 8419ms total)
T27CC 669:870 JLINK_ReadReg(FPS13)  returns 0x00000000 (0000ms, 8419ms total)
T27CC 669:870 JLINK_ReadReg(FPS14)  returns 0x00000000 (0000ms, 8419ms total)
T27CC 669:870 JLINK_ReadReg(FPS15)  returns 0x00000000 (0001ms, 8420ms total)
T27CC 669:871 JLINK_ReadReg(FPS16)  returns 0x00000000 (0000ms, 8420ms total)
T27CC 669:871 JLINK_ReadReg(FPS17)  returns 0x00000000 (0000ms, 8420ms total)
T27CC 669:871 JLINK_ReadReg(FPS18)  returns 0x00000000 (0000ms, 8420ms total)
T27CC 669:871 JLINK_ReadReg(FPS19)  returns 0x00000000 (0000ms, 8420ms total)
T27CC 669:871 JLINK_ReadReg(FPS20)  returns 0x00000000 (0000ms, 8420ms total)
T27CC 669:871 JLINK_ReadReg(FPS21)  returns 0x00000000 (0000ms, 8420ms total)
T27CC 669:871 JLINK_ReadReg(FPS22)  returns 0x00000000 (0000ms, 8420ms total)
T27CC 669:871 JLINK_ReadReg(FPS23)  returns 0x00000000 (0000ms, 8420ms total)
T27CC 669:871 JLINK_ReadReg(FPS24)  returns 0x00000000 (0000ms, 8420ms total)
T27CC 669:871 JLINK_ReadReg(FPS25)  returns 0x00000000 (0000ms, 8420ms total)
T27CC 669:871 JLINK_ReadReg(FPS26)  returns 0x00000000 (0000ms, 8420ms total)
T27CC 669:872 JLINK_ReadReg(FPS27)  returns 0x00000000 (0000ms, 8421ms total)
T27CC 669:872 JLINK_ReadReg(FPS28)  returns 0x00000000 (0000ms, 8421ms total)
T27CC 669:872 JLINK_ReadReg(FPS29)  returns 0x00000000 (0000ms, 8421ms total)
T27CC 669:872 JLINK_ReadReg(FPS30)  returns 0x00000000 (0000ms, 8421ms total)
T27CC 669:872 JLINK_ReadReg(FPS31)  returns 0x00000000 (0000ms, 8421ms total)
T27CC 669:872 JLINK_ReadMemEx(0x0000C004, 0x0004 Bytes, ..., Flags = 0x02000000) -- Read from C cache (4 bytes @ 0x0000C004) - Data: 01 C1 00 00  returns 0x04 (0000ms, 8421ms total)
T27CC 669:872 JLINK_WriteReg(R15 (PC), 0x0000C100)  returns 0x00 (0000ms, 8421ms total)
T27CC 669:872 JLINK_ReadReg(R0)  returns 0xA05F0003 (0000ms, 8421ms total)
T27CC 669:872 JLINK_ReadReg(R1)  returns 0xE000EDF0 (0000ms, 8421ms total)
T27CC 669:872 JLINK_ReadReg(R2)  returns 0xA05F0003 (0000ms, 8421ms total)
T27CC 669:872 JLINK_ReadReg(R3)  returns 0x10004000 (0001ms, 8422ms total)
T27CC 669:873 JLINK_ReadReg(R4)  returns 0x400401A0 (0000ms, 8422ms total)
T27CC 669:873 JLINK_ReadReg(R5)  returns 0x10008009 (0000ms, 8422ms total)
T27CC 669:873 JLINK_ReadReg(R6)  returns 0x10008008 (0000ms, 8422ms total)
T27CC 669:873 JLINK_ReadReg(R7)  returns 0x10004000 (0000ms, 8422ms total)
T27CC 669:873 JLINK_ReadReg(R8)  returns 0x00000100 (0000ms, 8422ms total)
T27CC 669:873 JLINK_ReadReg(R9)  returns 0x00000000 (0000ms, 8422ms total)
T27CC 669:873 JLINK_ReadReg(R10)  returns 0x00000000 (0000ms, 8422ms total)
T27CC 669:873 JLINK_ReadReg(R11)  returns 0x00000000 (0000ms, 8422ms total)
T27CC 669:873 JLINK_ReadReg(R12)  returns 0x80000000 (0000ms, 8422ms total)
T27CC 669:873 JLINK_ReadReg(R13 (SP))  returns 0x10003788 (0000ms, 8422ms total)
T27CC 669:873 JLINK_ReadReg(R14)  returns 0x000037B9 (0001ms, 8423ms total)
T27CC 669:874 JLINK_ReadReg(R15 (PC))  returns 0x0000C100 (0000ms, 8423ms total)
T27CC 669:874 JLINK_ReadReg(XPSR)  returns 0x81000000 (0000ms, 8423ms total)
T27CC 669:874 JLINK_ReadReg(MSP)  returns 0x10003788 (0000ms, 8423ms total)
T27CC 669:874 JLINK_ReadReg(PSP)  returns 0x00000000 (0000ms, 8423ms total)
T27CC 669:874 JLINK_ReadReg(CFBP)  returns 0x04000000 (0000ms, 8423ms total)
T27CC 669:874 JLINK_ReadReg(FPSCR)  returns 0x02000000 (0000ms, 8423ms total)
T27CC 669:874 JLINK_ReadReg(FPS0)  returns 0x00000000 (0000ms, 8423ms total)
T27CC 669:875 JLINK_ReadReg(FPS1)  returns 0x00000000 (0000ms, 8423ms total)
T27CC 669:875 JLINK_ReadReg(FPS2)  returns 0x00000000 (0000ms, 8423ms total)
T27CC 669:875 JLINK_ReadReg(FPS3)  returns 0x00000000 (0000ms, 8423ms total)
T27CC 669:875 JLINK_ReadReg(FPS4)  returns 0x00000000 (0000ms, 8423ms total)
T27CC 669:875 JLINK_ReadReg(FPS5)  returns 0x00000000 (0000ms, 8423ms total)
T27CC 669:875 JLINK_ReadReg(FPS6)  returns 0x00000000 (0000ms, 8423ms total)
T27CC 669:875 JLINK_ReadReg(FPS7)  returns 0x00000000 (0000ms, 8423ms total)
T27CC 669:875 JLINK_ReadReg(FPS8)  returns 0x00000000 (0000ms, 8423ms total)
T27CC 669:875 JLINK_ReadReg(FPS9)  returns 0x00000000 (0000ms, 8423ms total)
T27CC 669:875 JLINK_ReadReg(FPS10)  returns 0x00000000 (0000ms, 8423ms total)
T27CC 669:875 JLINK_ReadReg(FPS11)  returns 0x00000000 (0000ms, 8423ms total)
T27CC 669:875 JLINK_ReadReg(FPS12)  returns 0x00000000 (0000ms, 8423ms total)
T27CC 669:875 JLINK_ReadReg(FPS13)  returns 0x00000000 (0000ms, 8423ms total)
T27CC 669:875 JLINK_ReadReg(FPS14)  returns 0x00000000 (0000ms, 8423ms total)
T27CC 669:875 JLINK_ReadReg(FPS15)  returns 0x00000000 (0000ms, 8423ms total)
T27CC 669:875 JLINK_ReadReg(FPS16)  returns 0x00000000 (0001ms, 8424ms total)
T27CC 669:876 JLINK_ReadReg(FPS17)  returns 0x00000000 (0000ms, 8424ms total)
T27CC 669:876 JLINK_ReadReg(FPS18)  returns 0x00000000 (0000ms, 8424ms total)
T27CC 669:876 JLINK_ReadReg(FPS19)  returns 0x00000000 (0000ms, 8424ms total)
T27CC 669:876 JLINK_ReadReg(FPS20)  returns 0x00000000 (0000ms, 8424ms total)
T27CC 669:876 JLINK_ReadReg(FPS21)  returns 0x00000000 (0000ms, 8424ms total)
T27CC 669:876 JLINK_ReadReg(FPS22)  returns 0x00000000 (0000ms, 8424ms total)
T27CC 669:876 JLINK_ReadReg(FPS23)  returns 0x00000000 (0000ms, 8424ms total)
T27CC 669:876 JLINK_ReadReg(FPS24)  returns 0x00000000 (0000ms, 8424ms total)
T27CC 669:876 JLINK_ReadReg(FPS25)  returns 0x00000000 (0000ms, 8424ms total)
T27CC 669:876 JLINK_ReadReg(FPS26)  returns 0x00000000 (0000ms, 8424ms total)
T27CC 669:876 JLINK_ReadReg(FPS27)  returns 0x00000000 (0000ms, 8424ms total)
T27CC 669:876 JLINK_ReadReg(FPS28)  returns 0x00000000 (0000ms, 8424ms total)
T27CC 669:876 JLINK_ReadReg(FPS29)  returns 0x00000000 (0000ms, 8424ms total)
T27CC 669:876 JLINK_ReadReg(FPS30)  returns 0x00000000 (0000ms, 8424ms total)
T27CC 669:876 JLINK_ReadReg(FPS31)  returns 0x00000000 (0000ms, 8424ms total)
T27CC 669:876 JLINK_WriteMemEx(0xE000ED08, 0x0004 Bytes, ..., Flags = 0x02000000) - Data: 00 C0 00 00 -- CPU_WriteMem(4 bytes @ 0xE000ED08)  returns 0x04 (0001ms, 8425ms total)
T0E10 669:890 JLINK_ReadMemEx(0x0000C100, 0x0002 Bytes, ..., Flags = 0x02000000) -- CPU_ReadMem(64 bytes @ 0x0000C100) -- Updating C cache (64 bytes @ 0x0000C100) -- Read from C cache (2 bytes @ 0x0000C100) - Data: 4E F6  returns 0x02 (0006ms, 8431ms total)
T0E10 669:896 JLINK_SetBPEx(Addr = 0x0001B4D0, Type = 0xFFFFFFF2)  returns 0x00000001 (0000ms, 8431ms total)
T0E10 669:896 JLINK_SWO_Control(JLINKARM_SWO_CMD_GET_NUM_BYTES, ...)  returns 0x00 (0000ms, 8431ms total)
T0E10 669:896 JLINK_Go() -- CPU_WriteMem(4 bytes @ 0xE0002000) -- CPU_WriteMem(4 bytes @ 0xE0001000) -- CPU_ReadMem(4 bytes @ 0xE0001000) -- CPU_WriteMem(4 bytes @ 0xE0000E00) -- CPU_WriteMem(4 bytes @ 0xE0000E40) -- CPU_WriteMem(4 bytes @ 0xE0000E80) -- CPU_WriteMem(4 bytes @ 0xE0002008) -- CPU_WriteMem(4 bytes @ 0xE000200C) -- CPU_WriteMem(4 bytes @ 0xE0002010) -- CPU_WriteMem(4 bytes @ 0xE0002014) -- CPU_WriteMem(4 bytes @ 0xE0002018) -- CPU_WriteMem(4 bytes @ 0xE000201C)
 -- CPU_WriteMem(4 bytes @ 0xE0040010) -- CPU_WriteMem(4 bytes @ 0xE00400F0) -- CPU_WriteMem(4 bytes @ 0xE0040304) -- CPU_WriteMem(4 bytes @ 0xE0001004) (0010ms, 8441ms total)
T0E10 670:006 JLINK_SWO_Read(..., Offset = 0x00, NumBytes = 0x400000) - Data: 00 00 00 00 00 00 00 00 00 00 00 00 00 00 00 00 ...  NumBytesRead = 0x400000 (0000ms, 8441ms total)
T0E10 670:006 JLINK_SWO_Control(JLINKARM_SWO_CMD_FLUSH, ...)  returns 0x00 (0000ms, 8441ms total)
T0E10 670:025 JLINK_IsHalted()  returns TRUE (0007ms, 8448ms total)
T0E10 670:032 JLINK_Halt()  returns 0x00 (0000ms, 8441ms total)
T0E10 670:032 JLINK_IsHalted()  returns TRUE (0000ms, 8441ms total)
T0E10 670:032 JLINK_IsHalted()  returns TRUE (0000ms, 8441ms total)
T0E10 670:032 JLINK_IsHalted()  returns TRUE (0000ms, 8441ms total)
T0E10 670:032 JLINK_ReadReg(R15 (PC))  returns 0x0001B4D0 (0000ms, 8441ms total)
T0E10 670:032 JLINK_ReadReg(XPSR)  returns 0x21000000 (0000ms, 8441ms total)
